
**** 11/05/20 01:32:54 ******* PSpice Lite (March 2016) ******* ID# 10813 ****

 ** Profile: "SCHEMATIC1-Donghyung_Capstone"  [ C:\Users\SAMSUNG\Desktop\Donghyung_Capstone-PSpiceFiles\SCHEMATIC1\Donghyung_Capstone


 ****     CIRCUIT DESCRIPTION


******************************************************************************




** Creating circuit file "Donghyung_Capstone.cir" 
** WARNING: THIS AUTOMATICALLY GENERATED FILE MAY BE OVERWRITTEN BY SUBSEQUENT SIMULATIONS

*Libraries: 
* Profile Libraries :
* Local Libraries :
* From [PSPICE NETLIST] section of C:\Users\SAMSUNG\AppData\Roaming\SPB_Data\cdssetup\OrCAD_PSpice\17.2.0\PSpice.ini file:
.lib "nomd.lib" 

*Analysis directives: 
.TRAN  0 1000ns 0 
.OPTIONS ADVCONV
.PROBE64 V(alias(*)) I(alias(*)) W(alias(*)) D(alias(*)) NOISE(alias(*)) 
.INC "..\SCHEMATIC1.net" 



**** INCLUDING SCHEMATIC1.net ****
* source DONGHYUNG_CAPSTONE
V_Vin         N00097 0 5V
R_R1         N00121 N00097  10k TC=0,0 
R_R2         0 N00121  20k TC=0,0 

**** RESUMING Donghyung_Capstone.cir ****
.END

**** 11/05/20 01:32:54 ******* PSpice Lite (March 2016) ******* ID# 10813 ****

 ** Profile: "SCHEMATIC1-Donghyung_Capstone"  [ C:\Users\SAMSUNG\Desktop\Donghyung_Capstone-PSpiceFiles\SCHEMATIC1\Donghyung_Capstone


 ****     INITIAL TRANSIENT SOLUTION       TEMPERATURE =   27.000 DEG C


******************************************************************************



 NODE   VOLTAGE     NODE   VOLTAGE     NODE   VOLTAGE     NODE   VOLTAGE


(N00097)    5.0000 (N00121)    3.3333 




    VOLTAGE SOURCE CURRENTS
    NAME         CURRENT

    V_Vin       -1.667E-04

    TOTAL POWER DISSIPATION   8.33E-04  WATTS



          JOB CONCLUDED

**** 11/05/20 01:32:54 ******* PSpice Lite (March 2016) ******* ID# 10813 ****

 ** Profile: "SCHEMATIC1-Donghyung_Capstone"  [ C:\Users\SAMSUNG\Desktop\Donghyung_Capstone-PSpiceFiles\SCHEMATIC1\Donghyung_Capstone


 ****     JOB STATISTICS SUMMARY


******************************************************************************



  Total job time (using Solver 1)   =         .02
